time	V(vcc)	V(vo)
0.000000000000000e+00	9.500000e+00	4.961557e+00
9.999999960041972e-12	9.500001e+00	4.961559e+00
1.999999992008394e-11	9.500003e+00	4.961560e+00
3.999999984016789e-11	9.500005e+00	4.961562e+00
7.999999968033578e-11	9.500010e+00	4.961567e+00
1.599999993606716e-10	9.500020e+00	4.961577e+00
3.199999987213431e-10	9.500040e+00	4.961597e+00
6.399999974426862e-10	9.500080e+00	4.961637e+00
1.279999994885372e-09	9.500161e+00	4.961717e+00
2.559999989770745e-09	9.500321e+00	4.961877e+00
5.119999979541490e-09	9.500644e+00	4.962198e+00
1.023999995908298e-08	9.501287e+00	4.962848e+00
2.047999991816596e-08	9.502574e+00	4.964191e+00
4.095999983633192e-08	9.505147e+00	4.967069e+00
6.163326713517923e-08	9.507743e+00	4.970212e+00
8.004197715671939e-08	9.510055e+00	4.973170e+00
1.001627642311015e-07	9.512579e+00	4.976521e+00
1.194824094266186e-07	9.515000e+00	4.979804e+00
1.431245424401159e-07	9.517962e+00	4.983846e+00
1.743841866235004e-07	9.521870e+00	4.989110e+00
2.177901076495342e-07	9.527283e+00	4.995993e+00
2.795098249768787e-07	9.534944e+00	5.004195e+00
3.616422534742396e-07	9.545055e+00	5.010555e+00
4.486059730131773e-07	9.555630e+00	5.009972e+00
5.486059730131773e-07	9.567583e+00	5.000939e+00
6.133393728556471e-07	9.575181e+00	4.992707e+00
6.689427433028622e-07	9.581609e+00	4.986552e+00
7.288114062032579e-07	9.588418e+00	4.982499e+00
7.968517866302004e-07	9.596004e+00	4.981612e+00
8.506229615499272e-07	9.601875e+00	4.983257e+00
8.994064067774521e-07	9.607102e+00	4.985856e+00
9.484884252574844e-07	9.612260e+00	4.988897e+00
9.964151574614897e-07	9.617192e+00	4.991764e+00
1.043399158698789e-06	9.621925e+00	4.994061e+00
1.090613351050092e-06	9.626574e+00	4.995531e+00
1.149221312874247e-06	9.632189e+00	4.995878e+00
1.207273030800121e-06	9.637574e+00	4.994524e+00
1.274763581051312e-06	9.643604e+00	4.991174e+00
1.329459350735149e-06	9.648303e+00	4.987606e+00
1.373766811709574e-06	9.651980e+00	4.984622e+00
1.413851576578911e-06	9.655207e+00	4.982161e+00
1.451006427369271e-06	9.658109e+00	4.980259e+00
1.483373750184366e-06	9.660566e+00	4.978974e+00
1.515313977278446e-06	9.662927e+00	4.978071e+00
1.579194431466606e-06	9.667450e+00	4.977243e+00
1.648949761271022e-06	9.672081e+00	4.977458e+00
1.713591594227512e-06	9.676078e+00	4.978164e+00
1.774022126101577e-06	9.679551e+00	4.978782e+00
1.820329657316752e-06	9.682038e+00	4.979000e+00
1.866308222778905e-06	9.684355e+00	4.978863e+00
1.912159812960231e-06	9.686512e+00	4.978316e+00
1.969335102127023e-06	9.688985e+00	4.977062e+00
2.049975041164201e-06	9.692058e+00	4.974443e+00
2.108121990957792e-06	9.693968e+00	4.972178e+00
2.160535065144400e-06	9.695468e+00	4.970100e+00
2.214396168673602e-06	9.696789e+00	4.968107e+00
2.283468828062632e-06	9.698152e+00	4.965940e+00
2.365062810372573e-06	9.699282e+00	4.964015e+00
2.465062810372572e-06	9.699952e+00	4.962385e+00
2.562651486644792e-06	9.699845e+00	4.961133e+00
2.633768826978940e-06	9.699294e+00	4.960166e+00
2.697981103429398e-06	9.698455e+00	4.959116e+00
2.769967472696864e-06	9.697129e+00	4.957687e+00
2.848524420880238e-06	9.695224e+00	4.955846e+00
2.932963585325980e-06	9.692645e+00	4.953644e+00
3.024805964924563e-06	9.689225e+00	4.951167e+00
3.113521055144787e-06	9.685323e+00	4.948852e+00
3.213521055144787e-06	9.680236e+00	4.946459e+00
3.313521055144787e-06	9.674437e+00	4.944324e+00
3.413521055144787e-06	9.667949e+00	4.942398e+00
3.513521055144787e-06	9.660799e+00	4.940601e+00
3.613521055144787e-06	9.653014e+00	4.938863e+00
3.713521055144787e-06	9.644626e+00	4.937142e+00
3.813521055144787e-06	9.635666e+00	4.935431e+00
3.913521055144786e-06	9.626171e+00	4.933749e+00
4.013521055144786e-06	9.616179e+00	4.932127e+00
4.113521055144786e-06	9.605727e+00	4.930598e+00
4.213521055144786e-06	9.594858e+00	4.929192e+00
4.313521055144786e-06	9.583615e+00	4.927931e+00
4.413521055144786e-06	9.572042e+00	4.926828e+00
4.513521055144786e-06	9.560185e+00	4.925891e+00
4.613521055144786e-06	9.548091e+00	4.925125e+00
4.713521055144786e-06	9.535806e+00	4.924532e+00
4.813521055144785e-06	9.523380e+00	4.924116e+00
4.913521055144785e-06	9.510862e+00	4.923879e+00
5.013521055144785e-06	9.498301e+00	4.923823e+00
5.113521055144785e-06	9.485746e+00	4.923954e+00
5.213521055144785e-06	9.473248e+00	4.924274e+00
5.313521055144785e-06	9.460856e+00	4.924787e+00
5.413521055144785e-06	9.448618e+00	4.925494e+00
5.513521055144785e-06	9.436583e+00	4.926394e+00
5.613521055144785e-06	9.424798e+00	4.927485e+00
5.713521055144784e-06	9.413310e+00	4.928761e+00
5.813521055144784e-06	9.402164e+00	4.930211e+00
5.913521055144784e-06	9.391404e+00	4.931819e+00
6.013521055144784e-06	9.381073e+00	4.933566e+00
6.113521055144784e-06	9.371211e+00	4.935425e+00
6.213521055144784e-06	9.361857e+00	4.937367e+00
6.313521055144784e-06	9.353048e+00	4.939359e+00
6.413521055144784e-06	9.344820e+00	4.941364e+00
6.513521055144784e-06	9.337204e+00	4.943352e+00
6.613521055144783e-06	9.330230e+00	4.945297e+00
6.713521055144783e-06	9.323926e+00	4.947183e+00
6.813521055144783e-06	9.318317e+00	4.949010e+00
6.913521055144783e-06	9.313426e+00	4.950792e+00
7.013521055144783e-06	9.309271e+00	4.952556e+00
7.113521055144783e-06	9.305868e+00	4.954338e+00
7.213521055144783e-06	9.303231e+00	4.956171e+00
7.313521055144783e-06	9.301372e+00	4.958079e+00
7.413521055144783e-06	9.300295e+00	4.960072e+00
7.513521055144782e-06	9.300007e+00	4.962139e+00
7.613521055144782e-06	9.300508e+00	4.964254e+00
7.713521055144783e-06	9.301797e+00	4.966379e+00
7.813521055144784e-06	9.303868e+00	4.968477e+00
7.913521055144785e-06	9.306713e+00	4.970516e+00
8.013521055144785e-06	9.310321e+00	4.972481e+00
8.113521055144786e-06	9.314677e+00	4.974372e+00
8.213521055144787e-06	9.319764e+00	4.976202e+00
8.313521055144788e-06	9.325563e+00	4.977988e+00
8.413521055144788e-06	9.332051e+00	4.979742e+00
8.513521055144789e-06	9.339201e+00	4.981462e+00
8.613521055144790e-06	9.346986e+00	4.983140e+00
8.713521055144790e-06	9.355374e+00	4.984751e+00
8.813521055144791e-06	9.364334e+00	4.986274e+00
8.913521055144792e-06	9.373829e+00	4.987692e+00
9.013521055144793e-06	9.383821e+00	4.988997e+00
9.113521055144793e-06	9.394273e+00	4.990191e+00
9.213521055144794e-06	9.405142e+00	4.991282e+00
9.313521055144795e-06	9.416385e+00	4.992272e+00
9.413521055144796e-06	9.427958e+00	4.993163e+00
9.513521055144796e-06	9.439815e+00	4.993944e+00
9.613521055144797e-06	9.451909e+00	4.994606e+00
9.713521055144798e-06	9.464194e+00	4.995136e+00
9.813521055144799e-06	9.476620e+00	4.995530e+00
9.913521055144799e-06	9.489138e+00	4.995788e+00
1.001352105514480e-05	9.501699e+00	4.995914e+00
1.011352105514480e-05	9.514254e+00	4.995912e+00
1.021352105514480e-05	9.526752e+00	4.995783e+00
1.031352105514480e-05	9.539144e+00	4.995527e+00
1.041352105514480e-05	9.551382e+00	4.995140e+00
1.051352105514480e-05	9.563417e+00	4.994618e+00
1.061352105514480e-05	9.575202e+00	4.993963e+00
1.071352105514481e-05	9.586690e+00	4.993177e+00
1.081352105514481e-05	9.597836e+00	4.992268e+00
1.091352105514481e-05	9.608596e+00	4.991239e+00
1.101352105514481e-05	9.618927e+00	4.990095e+00
1.111352105514481e-05	9.628789e+00	4.988840e+00
1.121352105514481e-05	9.638143e+00	4.987476e+00
1.131352105514481e-05	9.646952e+00	4.986006e+00
1.141352105514481e-05	9.655180e+00	4.984435e+00
1.151352105514481e-05	9.662796e+00	4.982769e+00
1.161352105514481e-05	9.669770e+00	4.981017e+00
1.171352105514481e-05	9.676074e+00	4.979184e+00
1.181352105514481e-05	9.681683e+00	4.977279e+00
1.191352105514481e-05	9.686574e+00	4.975307e+00
1.201352105514481e-05	9.690729e+00	4.973273e+00
1.211352105514482e-05	9.694132e+00	4.971186e+00
1.221352105514482e-05	9.696769e+00	4.969052e+00
1.231352105514482e-05	9.698628e+00	4.966880e+00
1.241352105514482e-05	9.699705e+00	4.964676e+00
1.251352105514482e-05	9.699993e+00	4.962451e+00
1.261352105514482e-05	9.699492e+00	4.960211e+00
1.271352105514482e-05	9.698203e+00	4.957965e+00
1.281352105514482e-05	9.696132e+00	4.955720e+00
1.291352105514482e-05	9.693287e+00	4.953485e+00
1.301352105514482e-05	9.689679e+00	4.951269e+00
1.311352105514482e-05	9.685323e+00	4.949079e+00
1.321352105514482e-05	9.680236e+00	4.946923e+00
1.331352105514482e-05	9.674437e+00	4.944811e+00
1.341352105514483e-05	9.667949e+00	4.942752e+00
1.351352105514483e-05	9.660799e+00	4.940753e+00
1.361352105514483e-05	9.653014e+00	4.938823e+00
1.371352105514483e-05	9.644626e+00	4.936971e+00
1.381352105514483e-05	9.635666e+00	4.935206e+00
1.391352105514483e-05	9.626171e+00	4.933535e+00
1.401352105514483e-05	9.616179e+00	4.931968e+00
1.411352105514483e-05	9.605727e+00	4.930513e+00
1.421352105514483e-05	9.594858e+00	4.929178e+00
1.431352105514483e-05	9.583615e+00	4.927973e+00
1.441352105514483e-05	9.572042e+00	4.926905e+00
1.451352105514483e-05	9.560185e+00	4.925982e+00
1.461352105514483e-05	9.548091e+00	4.925214e+00
1.471352105514483e-05	9.535806e+00	4.924607e+00
1.481352105514484e-05	9.523380e+00	4.924170e+00
1.491352105514484e-05	9.510862e+00	4.923910e+00
1.501352105514484e-05	9.498301e+00	4.923833e+00
1.511352105514484e-05	9.485746e+00	4.923945e+00
1.521352105514484e-05	9.473248e+00	4.924252e+00
1.531352105514484e-05	9.460856e+00	4.924755e+00
1.541352105514484e-05	9.448618e+00	4.925457e+00
1.551352105514484e-05	9.436583e+00	4.926358e+00
1.561352105514484e-05	9.424798e+00	4.927452e+00
1.571352105514484e-05	9.413310e+00	4.928733e+00
1.581352105514483e-05	9.402164e+00	4.930191e+00
1.591352105514483e-05	9.391404e+00	4.931807e+00
1.601352105514483e-05	9.381073e+00	4.933562e+00
1.611352105514483e-05	9.371211e+00	4.935429e+00
1.621352105514483e-05	9.361857e+00	4.937378e+00
1.631352105514483e-05	9.353048e+00	4.939373e+00
1.641352105514483e-05	9.344820e+00	4.941381e+00
1.651352105514483e-05	9.337204e+00	4.943369e+00
1.661352105514483e-05	9.330230e+00	4.945312e+00
1.671352105514483e-05	9.323926e+00	4.947194e+00
1.681352105514482e-05	9.318317e+00	4.949016e+00
1.691352105514482e-05	9.313426e+00	4.950792e+00
1.701352105514482e-05	9.309271e+00	4.952552e+00
1.711352105514482e-05	9.305868e+00	4.954331e+00
1.721352105514482e-05	9.303231e+00	4.956162e+00
1.731352105514482e-05	9.301372e+00	4.958072e+00
1.741352105514482e-05	9.300295e+00	4.960067e+00
1.751352105514482e-05	9.300007e+00	4.962137e+00
1.761352105514482e-05	9.300508e+00	4.964255e+00
1.771352105514482e-05	9.301797e+00	4.966383e+00
1.781352105514482e-05	9.303868e+00	4.968481e+00
1.791352105514481e-05	9.306713e+00	4.970519e+00
1.801352105514481e-05	9.310321e+00	4.972483e+00
1.811352105514481e-05	9.314677e+00	4.974372e+00
1.821352105514481e-05	9.319764e+00	4.976201e+00
1.831352105514481e-05	9.325563e+00	4.977986e+00
1.841352105514481e-05	9.332051e+00	4.979740e+00
1.851352105514481e-05	9.339201e+00	4.981462e+00
1.861352105514481e-05	9.346986e+00	4.983140e+00
1.871352105514481e-05	9.355374e+00	4.984752e+00
1.881352105514481e-05	9.364334e+00	4.986275e+00
1.891352105514480e-05	9.373829e+00	4.987693e+00
1.901352105514480e-05	9.383821e+00	4.988997e+00
1.911352105514480e-05	9.394273e+00	4.990191e+00
1.921352105514480e-05	9.405142e+00	4.991281e+00
1.931352105514480e-05	9.416385e+00	4.992272e+00
1.941352105514480e-05	9.427958e+00	4.993162e+00
1.951352105514480e-05	9.439815e+00	4.993944e+00
1.961352105514480e-05	9.451909e+00	4.994606e+00
1.971352105514480e-05	9.464194e+00	4.995136e+00
1.981352105514480e-05	9.476620e+00	4.995530e+00
1.991352105514480e-05	9.489138e+00	4.995788e+00
2.001352105514479e-05	9.501699e+00	4.995914e+00
2.011352105514479e-05	9.514254e+00	4.995911e+00
2.021352105514479e-05	9.526752e+00	4.995783e+00
2.031352105514479e-05	9.539144e+00	4.995527e+00
2.041352105514479e-05	9.551382e+00	4.995140e+00
2.051352105514479e-05	9.563417e+00	4.994618e+00
2.061352105514479e-05	9.575202e+00	4.993963e+00
2.071352105514479e-05	9.586690e+00	4.993177e+00
2.081352105514479e-05	9.597836e+00	4.992268e+00
2.091352105514479e-05	9.608596e+00	4.991239e+00
2.101352105514478e-05	9.618927e+00	4.990095e+00
2.111352105514478e-05	9.628789e+00	4.988840e+00
2.121352105514478e-05	9.638143e+00	4.987476e+00
2.131352105514478e-05	9.646952e+00	4.986006e+00
2.141352105514478e-05	9.655180e+00	4.984435e+00
2.151352105514478e-05	9.662796e+00	4.982769e+00
2.161352105514478e-05	9.669770e+00	4.981017e+00
2.171352105514478e-05	9.676074e+00	4.979184e+00
2.181352105514478e-05	9.681683e+00	4.977279e+00
2.191352105514478e-05	9.686574e+00	4.975307e+00
2.201352105514477e-05	9.690729e+00	4.973273e+00
2.211352105514477e-05	9.694132e+00	4.971186e+00
2.221352105514477e-05	9.696769e+00	4.969052e+00
2.231352105514477e-05	9.698628e+00	4.966880e+00
2.241352105514477e-05	9.699705e+00	4.964676e+00
2.251352105514477e-05	9.699993e+00	4.962451e+00
2.261352105514477e-05	9.699492e+00	4.960211e+00
2.271352105514477e-05	9.698203e+00	4.957965e+00
2.281352105514477e-05	9.696132e+00	4.955720e+00
2.291352105514477e-05	9.693287e+00	4.953485e+00
2.301352105514477e-05	9.689679e+00	4.951269e+00
2.311352105514476e-05	9.685323e+00	4.949079e+00
2.321352105514476e-05	9.680236e+00	4.946923e+00
2.331352105514476e-05	9.674437e+00	4.944811e+00
2.341352105514476e-05	9.667949e+00	4.942752e+00
2.351352105514476e-05	9.660799e+00	4.940753e+00
2.361352105514476e-05	9.653014e+00	4.938823e+00
2.371352105514476e-05	9.644626e+00	4.936971e+00
2.381352105514476e-05	9.635666e+00	4.935206e+00
2.391352105514476e-05	9.626171e+00	4.933535e+00
2.401352105514476e-05	9.616179e+00	4.931968e+00
2.411352105514475e-05	9.605727e+00	4.930513e+00
2.421352105514475e-05	9.594858e+00	4.929178e+00
2.431352105514475e-05	9.583615e+00	4.927973e+00
2.441352105514475e-05	9.572042e+00	4.926905e+00
2.451352105514475e-05	9.560185e+00	4.925982e+00
2.461352105514475e-05	9.548091e+00	4.925214e+00
2.471352105514475e-05	9.535806e+00	4.924607e+00
2.481352105514475e-05	9.523380e+00	4.924170e+00
2.491352105514475e-05	9.510862e+00	4.923910e+00
2.501352105514475e-05	9.498301e+00	4.923833e+00
2.511352105514475e-05	9.485746e+00	4.923945e+00
2.521352105514474e-05	9.473248e+00	4.924252e+00
2.531352105514474e-05	9.460856e+00	4.924755e+00
2.541352105514474e-05	9.448618e+00	4.925457e+00
2.551352105514474e-05	9.436583e+00	4.926358e+00
2.561352105514474e-05	9.424798e+00	4.927452e+00
2.571352105514474e-05	9.413310e+00	4.928733e+00
2.581352105514474e-05	9.402164e+00	4.930191e+00
2.591352105514474e-05	9.391404e+00	4.931807e+00
2.601352105514474e-05	9.381073e+00	4.933562e+00
2.611352105514474e-05	9.371211e+00	4.935429e+00
2.621352105514473e-05	9.361857e+00	4.937378e+00
2.631352105514473e-05	9.353048e+00	4.939373e+00
2.641352105514473e-05	9.344820e+00	4.941381e+00
2.651352105514473e-05	9.337204e+00	4.943369e+00
2.661352105514473e-05	9.330230e+00	4.945312e+00
2.671352105514473e-05	9.323926e+00	4.947194e+00
2.681352105514473e-05	9.318317e+00	4.949016e+00
2.691352105514473e-05	9.313426e+00	4.950792e+00
2.701352105514473e-05	9.309271e+00	4.952552e+00
2.711352105514473e-05	9.305868e+00	4.954331e+00
2.721352105514473e-05	9.303231e+00	4.956162e+00
2.731352105514472e-05	9.301372e+00	4.958072e+00
2.741352105514472e-05	9.300295e+00	4.960067e+00
2.751352105514472e-05	9.300007e+00	4.962137e+00
2.761352105514472e-05	9.300508e+00	4.964255e+00
2.771352105514472e-05	9.301797e+00	4.966383e+00
2.781352105514472e-05	9.303868e+00	4.968481e+00
2.791352105514472e-05	9.306713e+00	4.970519e+00
2.801352105514472e-05	9.310321e+00	4.972483e+00
2.811352105514472e-05	9.314677e+00	4.974372e+00
2.821352105514472e-05	9.319764e+00	4.976201e+00
2.831352105514471e-05	9.325563e+00	4.977986e+00
2.841352105514471e-05	9.332051e+00	4.979740e+00
2.851352105514471e-05	9.339201e+00	4.981462e+00
2.861352105514471e-05	9.346986e+00	4.983140e+00
2.871352105514471e-05	9.355374e+00	4.984752e+00
2.881352105514471e-05	9.364334e+00	4.986275e+00
2.891352105514471e-05	9.373829e+00	4.987693e+00
2.901352105514471e-05	9.383821e+00	4.988997e+00
2.911352105514471e-05	9.394273e+00	4.990191e+00
2.921352105514471e-05	9.405142e+00	4.991281e+00
2.931352105514471e-05	9.416385e+00	4.992272e+00
2.941352105514470e-05	9.427958e+00	4.993162e+00
2.951352105514470e-05	9.439815e+00	4.993944e+00
2.961352105514470e-05	9.451909e+00	4.994606e+00
2.971352105514470e-05	9.464194e+00	4.995136e+00
2.981352105514470e-05	9.476620e+00	4.995530e+00
2.991352105514470e-05	9.489138e+00	4.995788e+00
3.001352105514470e-05	9.501699e+00	4.995914e+00
3.011352105514470e-05	9.514254e+00	4.995911e+00
3.021352105514470e-05	9.526752e+00	4.995783e+00
3.031352105514470e-05	9.539144e+00	4.995527e+00
3.041352105514469e-05	9.551382e+00	4.995140e+00
3.051352105514469e-05	9.563417e+00	4.994618e+00
3.061352105514470e-05	9.575202e+00	4.993963e+00
3.071352105514470e-05	9.586690e+00	4.993177e+00
3.081352105514470e-05	9.597836e+00	4.992268e+00
3.091352105514470e-05	9.608596e+00	4.991239e+00
3.101352105514471e-05	9.618927e+00	4.990095e+00
3.111352105514471e-05	9.628789e+00	4.988840e+00
3.121352105514471e-05	9.638143e+00	4.987476e+00
3.131352105514471e-05	9.646952e+00	4.986006e+00
3.141352105514472e-05	9.655180e+00	4.984435e+00
3.151352105514472e-05	9.662796e+00	4.982769e+00
3.161352105514472e-05	9.669770e+00	4.981017e+00
3.171352105514472e-05	9.676074e+00	4.979184e+00
3.181352105514473e-05	9.681683e+00	4.977279e+00
3.191352105514473e-05	9.686574e+00	4.975307e+00
3.201352105514473e-05	9.690729e+00	4.973273e+00
3.211352105514473e-05	9.694132e+00	4.971186e+00
3.221352105514473e-05	9.696769e+00	4.969052e+00
3.231352105514474e-05	9.698628e+00	4.966880e+00
3.241352105514474e-05	9.699705e+00	4.964676e+00
3.251352105514474e-05	9.699993e+00	4.962451e+00
3.261352105514474e-05	9.699492e+00	4.960211e+00
3.271352105514475e-05	9.698203e+00	4.957965e+00
3.281352105514475e-05	9.696132e+00	4.955720e+00
3.291352105514475e-05	9.693287e+00	4.953485e+00
3.301352105514475e-05	9.689679e+00	4.951269e+00
3.311352105514476e-05	9.685323e+00	4.949079e+00
3.321352105514476e-05	9.680236e+00	4.946923e+00
3.331352105514476e-05	9.674437e+00	4.944811e+00
3.341352105514476e-05	9.667949e+00	4.942752e+00
3.351352105514477e-05	9.660799e+00	4.940753e+00
3.361352105514477e-05	9.653014e+00	4.938823e+00
3.371352105514477e-05	9.644626e+00	4.936971e+00
3.381352105514477e-05	9.635666e+00	4.935206e+00
3.391352105514478e-05	9.626171e+00	4.933535e+00
3.401352105514478e-05	9.616179e+00	4.931968e+00
3.411352105514478e-05	9.605727e+00	4.930513e+00
3.421352105514478e-05	9.594858e+00	4.929178e+00
3.431352105514479e-05	9.583615e+00	4.927973e+00
3.441352105514479e-05	9.572042e+00	4.926905e+00
3.451352105514479e-05	9.560185e+00	4.925982e+00
3.461352105514479e-05	9.548091e+00	4.925214e+00
3.471352105514480e-05	9.535806e+00	4.924607e+00
3.481352105514480e-05	9.523380e+00	4.924170e+00
3.491352105514480e-05	9.510862e+00	4.923910e+00
3.501352105514480e-05	9.498301e+00	4.923833e+00
3.511352105514481e-05	9.485746e+00	4.923945e+00
3.521352105514481e-05	9.473248e+00	4.924252e+00
3.531352105514481e-05	9.460856e+00	4.924755e+00
3.541352105514481e-05	9.448618e+00	4.925457e+00
3.551352105514482e-05	9.436583e+00	4.926358e+00
3.561352105514482e-05	9.424798e+00	4.927452e+00
3.571352105514482e-05	9.413310e+00	4.928733e+00
3.581352105514482e-05	9.402164e+00	4.930191e+00
3.591352105514482e-05	9.391404e+00	4.931807e+00
3.601352105514483e-05	9.381073e+00	4.933562e+00
3.611352105514483e-05	9.371211e+00	4.935429e+00
3.621352105514483e-05	9.361857e+00	4.937378e+00
3.631352105514483e-05	9.353048e+00	4.939373e+00
3.641352105514484e-05	9.344820e+00	4.941381e+00
3.651352105514484e-05	9.337204e+00	4.943369e+00
3.661352105514484e-05	9.330230e+00	4.945312e+00
3.671352105514484e-05	9.323926e+00	4.947194e+00
3.681352105514485e-05	9.318317e+00	4.949016e+00
3.691352105514485e-05	9.313426e+00	4.950792e+00
3.701352105514485e-05	9.309271e+00	4.952552e+00
3.711352105514485e-05	9.305868e+00	4.954331e+00
3.721352105514486e-05	9.303231e+00	4.956162e+00
3.731352105514486e-05	9.301372e+00	4.958072e+00
3.741352105514486e-05	9.300295e+00	4.960067e+00
3.751352105514486e-05	9.300007e+00	4.962137e+00
3.761352105514487e-05	9.300508e+00	4.964255e+00
3.771352105514487e-05	9.301797e+00	4.966383e+00
3.781352105514487e-05	9.303868e+00	4.968481e+00
3.791352105514487e-05	9.306713e+00	4.970519e+00
3.801352105514488e-05	9.310321e+00	4.972483e+00
